LTspice 24.0.12 for Windows
Circuit: * C:\Users\tomma\Documents\uni\terzo anno\electronics\electronics lab\lab3-4\prelab 4\Draft1.asc
Start Time: Wed Nov 27 18:56:42 2024
solver = Normal
Maximum thread count: 8



Direct Newton iteration for .op point succeeded.
Semiconductor Device Operating Points:
                        --- Diodes ---
Name:      d1
Model:    1n750
Id:     -2.00e-02
Vd:     -4.70e+00
Req:     2.41e+00
CAP:     5.88e-11

                        --- Bipolar Transistors ---
Name:       q1
Model:    2n2222
Ib:       1.95e-05
Ic:       4.02e-03
Vbe:      6.91e-01
Vbc:     -4.30e+00
Vce:      4.99e+00
BetaDC:   2.06e+02
Gm:       1.53e-01
Rpi:      1.33e+03
Rx:       1.00e+01
Ro:       2.60e+04
Cbe:      1.01e-10
Cbc:      4.26e-12
Cjs:      0.00e+00
BetaAC:   2.03e+02
Cbx:      0.00e+00
Ft:       2.31e+08























































































































































































































































































































































































































































































































































































































tnom = 27
temp = 27
method = modified trap
Total elapsed time: 3.614 seconds.

